<Qucs Dataset 0.0.19>
<indep frequency 200>
  +0.00000000000000000000e+000
  +1.50753768844221103936e+007
  +3.01507537688442207873e+007
  +4.52261306532663330436e+007
  +6.03015075376884415746e+007
  +7.53768844221105575562e+007
  +9.04522613065326660872e+007
  +1.05527638190954774618e+008
  +1.20603015075376883149e+008
  +1.35678391959798991680e+008
  +1.50753768844221115112e+008
  +1.65829145728643208742e+008
  +1.80904522613065332174e+008
  +1.95979899497487425804e+008
  +2.11055276381909549236e+008
  +2.26130653266331672668e+008
  +2.41206030150753766298e+008
  +2.56281407035175889730e+008
  +2.71356783919597983360e+008
  +2.86432160804020106792e+008
  +3.01507537688442230225e+008
  +3.16582914572864294052e+008
  +3.31658291457286417484e+008
  +3.46733668341708540916e+008
  +3.61809045226130664349e+008
  +3.76884422110552787781e+008
  +3.91959798994974851608e+008
  +4.07035175879396975040e+008
  +4.22110552763819098473e+008
  +4.37185929648241221905e+008
  +4.52261306532663345337e+008
  +4.67336683417085409164e+008
  +4.82412060301507532597e+008
  +4.97487437185929656029e+008
  +5.12562814070351779461e+008
  +5.27638190954773843288e+008
  +5.42713567839195966721e+008
  +5.57788944723618149757e+008
  +5.72864321608040213585e+008
  +5.87939698492462277412e+008
  +6.03015075376884460449e+008
  +6.18090452261306524277e+008
  +6.33165829145728588104e+008
  +6.48241206030150771141e+008
  +6.63316582914572834969e+008
  +6.78391959798995018005e+008
  +6.93467336683417081833e+008
  +7.08542713567839145660e+008
  +7.23618090452261328697e+008
  +7.38693467336683392525e+008
  +7.53768844221105575562e+008
  +7.68844221105527639389e+008
  +7.83919597989949703217e+008
  +7.98994974874371886253e+008
  +8.14070351758793950081e+008
  +8.29145728643216133118e+008
  +8.44221105527638196945e+008
  +8.59296482412060260773e+008
  +8.74371859296482443810e+008
  +8.89447236180904507637e+008
  +9.04522613065326690674e+008
  +9.19597989949748754501e+008
  +9.34673366834170818329e+008
  +9.49748743718593001366e+008
  +9.64824120603015065193e+008
  +9.79899497487437129021e+008
  +9.94974874371859312057e+008
  +1.01005025125628137589e+009
  +1.02512562814070355892e+009
  +1.04020100502512562275e+009
  +1.05527638190954768658e+009
  +1.07035175879396986961e+009
  +1.08542713567839193344e+009
  +1.10050251256281399727e+009
  +1.11557788944723629951e+009
  +1.13065326633165836334e+009
  +1.14572864321608042717e+009
  +1.16080402010050249100e+009
  +1.17587939698492455482e+009
  +1.19095477386934661865e+009
  +1.20603015075376892090e+009
  +1.22110552763819098473e+009
  +1.23618090452261304855e+009
  +1.25125628140703511238e+009
  +1.26633165829145717621e+009
  +1.28140703517587947845e+009
  +1.29648241206030154228e+009
  +1.31155778894472360611e+009
  +1.32663316582914566994e+009
  +1.34170854271356773376e+009
  +1.35678391959799003601e+009
  +1.37185929648241209984e+009
  +1.38693467336683416367e+009
  +1.40201005025125622749e+009
  +1.41708542713567829132e+009
  +1.43216080402010059357e+009
  +1.44723618090452265739e+009
  +1.46231155778894472122e+009
  +1.47738693467336678505e+009
  +1.49246231155778884888e+009
  +1.50753768844221115112e+009
  +1.52261306532663321495e+009
  +1.53768844221105527878e+009
  +1.55276381909547734261e+009
  +1.56783919597989940643e+009
  +1.58291457286432170868e+009
  +1.59798994974874377251e+009
  +1.61306532663316583633e+009
  +1.62814070351758790016e+009
  +1.64321608040200996399e+009
  +1.65829145728643226624e+009
  +1.67336683417085433006e+009
  +1.68844221105527639389e+009
  +1.70351758793969845772e+009
  +1.71859296482412052155e+009
  +1.73366834170854282379e+009
  +1.74874371859296488762e+009
  +1.76381909547738695145e+009
  +1.77889447236180901527e+009
  +1.79396984924623107910e+009
  +1.80904522613065338135e+009
  +1.82412060301507544518e+009
  +1.83919597989949750900e+009
  +1.85427135678391957283e+009
  +1.86934673366834163666e+009
  +1.88442211055276370049e+009
  +1.89949748743718600273e+009
  +1.91457286432160806656e+009
  +1.92964824120603013039e+009
  +1.94472361809045219421e+009
  +1.95979899497487425804e+009
  +1.97487437185929656029e+009
  +1.98994974874371862411e+009
  +2.00502512562814068794e+009
  +2.02010050251256275177e+009
  +2.03517587939698481560e+009
  +2.05025125628140711784e+009
  +2.06532663316582918167e+009
  +2.08040201005025124550e+009
  +2.09547738693467330933e+009
  +2.11055276381909537315e+009
  +2.12562814070351767540e+009
  +2.14070351758793973923e+009
  +2.15577889447236204147e+009
  +2.17085427135678386688e+009
  +2.18592964824120616913e+009
  +2.20100502512562799454e+009
  +2.21608040201005029678e+009
  +2.23115577889447259903e+009
  +2.24623115577889442444e+009
  +2.26130653266331672668e+009
  +2.27638190954773855209e+009
  +2.29145728643216085434e+009
  +2.30653266331658267975e+009
  +2.32160804020100498199e+009
  +2.33668341708542728424e+009
  +2.35175879396984910965e+009
  +2.36683417085427141190e+009
  +2.38190954773869323730e+009
  +2.39698492462311553955e+009
  +2.41206030150753784180e+009
  +2.42713567839195966721e+009
  +2.44221105527638196945e+009
  +2.45728643216080379486e+009
  +2.47236180904522609711e+009
  +2.48743718592964839935e+009
  +2.50251256281407022476e+009
  +2.51758793969849252701e+009
  +2.53266331658291435242e+009
  +2.54773869346733665466e+009
  +2.56281407035175895691e+009
  +2.57788944723618078232e+009
  +2.59296482412060308456e+009
  +2.60804020100502490997e+009
  +2.62311557788944721222e+009
  +2.63819095477386951447e+009
  +2.65326633165829133987e+009
  +2.66834170854271364212e+009
  +2.68341708542713546753e+009
  +2.69849246231155776978e+009
  +2.71356783919598007202e+009
  +2.72864321608040189743e+009
  +2.74371859296482419968e+009
  +2.75879396984924602509e+009
  +2.77386934673366832733e+009
  +2.78894472361809062958e+009
  +2.80402010050251245499e+009
  +2.81909547738693475723e+009
  +2.83417085427135658264e+009
  +2.84924623115577888489e+009
  +2.86432160804020118713e+009
  +2.87939698492462301254e+009
  +2.89447236180904531479e+009
  +2.90954773869346714020e+009
  +2.92462311557788944244e+009
  +2.93969849246231174469e+009
  +2.95477386934673357010e+009
  +2.96984924623115587234e+009
  +2.98492462311557769775e+009
  +3.00000000000000000000e+009
</indep>
<dep dB frequency>
  -6.23461457439658328639e+000
  -6.22979792196849402330e+000
  -6.20502697292163674092e+000
  -6.16299032747612773875e+000
  -6.10501204341671943610e+000
  -6.03265516220229791600e+000
  -5.94771158446171988032e+000
  -5.85212642138892658039e+000
  -5.74791246598279936819e+000
  -5.63707073821574944361e+000
  -5.52152420110410790954e+000
  -5.40306756658899622892e+000
  -5.28333343900883622979e+000
  -5.16377332802227861919e+000
  -5.04565111291436085850e+000
  -4.93004618592537990907e+000
  -4.81786356380601965554e+000
  -4.70984856828590903177e+000
  -4.60660410471640702212e+000
  -4.50860902052672862794e+000
  -4.41623644431441864100e+000
  -4.32977136369414150607e+000
  -4.24942698624667514196e+000
  -4.17535964563994532739e+000
  -4.10768217292131332385e+000
  -4.04647576205853631848e+000
  -3.99180042999549966609e+000
  -3.94370421457804276599e+000
  -3.90223127685958059985e+000
  -3.86742908400167628713e+000
  -3.83935485021594757882e+000
  -3.81808140966418685380e+000
  -3.80370268966239377662e+000
  -3.79633894689759232577e+000
  -3.79614192510724413054e+000
  -3.80330009088597353895e+000
  -3.81804410586589160204e+000
  -3.84065269928643626685e+000
  -3.87145911578595747216e+000
  -3.91085833012233141659e+000
  -3.95931524474573226513e+000
  -4.01737411940529298704e+000
  -4.08566952658440563084e+000
  -4.16493918571366883441e+000
  -4.25603910725409573246e+000
  -4.35996158114677268003e+000
  -4.47785668174301765276e+000
  -4.61105814610148367905e+000
  -4.76111473344517666106e+000
  -4.92982851886128869978e+000
  -5.11930205675051119840e+000
  -5.33199703491997301086e+000
  -5.57080803185856154869e+000
  -5.83915645303651054121e+000
  -6.14111192782526948974e+000
  -6.48155185114252496703e+000
  -6.86637513646456376648e+000
  -7.30279500208201426403e+000
  -7.79975030499844734777e+000
  -8.36850048378793687220e+000
  -9.02351545247189967824e+000
  -9.78385977128750283782e+000
  -1.06754476076600717249e+001
  -1.17349277722709821603e+001
  -1.30168605281749698577e+001
  -1.46082278788561019667e+001
  -1.66616129097362453138e+001
  -1.94860883829127580213e+001
  -2.38833848776514798828e+001
  -3.35676109484954281470e+001
  -3.21946854960749675456e+001
  -2.32061374045883255235e+001
  -1.88422880529583451903e+001
  -1.59529260854057692853e+001
  -1.38056624812967179139e+001
  -1.21113136890141994684e+001
  -1.07254145541955772103e+001
  -9.56497019843627782620e+000
  -8.57754583092860123372e+000
  -7.72761322905306435871e+000
  -6.98976405097129127597e+000
  -6.34503406487182708418e+000
  -5.77877727845677480190e+000
  -5.27937012710218489531e+000
  -4.83738601441810800452e+000
  -4.44504871113999033838e+000
  -4.09585739760328859660e+000
  -3.78432084468129925625e+000
  -3.50576307527560970811e+000
  -3.25617718618503859673e+000
  -3.03211253743565745111e+000
  -2.83058571299856387427e+000
  -2.64900888861978156541e+000
  -2.48513128793989146459e+000
  -2.33699072422346088018e+000
  -2.20287308621350996773e+000
  -2.08127820045816891437e+000
  -1.97089089264306438487e+000
  -1.87055634185290697857e+000
  -1.77925901516911144640e+000
  -1.69610461156975511621e+000
  -1.62030455038345611030e+000
  -1.55116262133078186558e+000
  -1.48806347752222545289e+000
  -1.43046270436353983868e+000
  -1.37787823932992559151e+000
  -1.32988295221828889403e+000
  -1.28609822434270437697e+000
  -1.24618838935295861425e+000
  -1.20985591879459075670e+000
  -1.17683725285994533749e+000
  -1.14689919153162733778e+000
  -1.11983577391935940071e+000
  -1.09546558438819752190e+000
  -1.07362943336150085116e+000
  -1.05418836870102805570e+000
  -1.03702198052655725213e+000
  -1.02202696841721940579e+000
  -1.00911594529020964828e+000
  -9.98216457014912683654e-001
  -9.89270201110936442390e-001
  -9.82232431805055261620e-001
  -9.77071542382780378055e-001
  -9.73768819257736062411e-001
  -9.72318365585125743422e-001
  -9.72727195651520992747e-001
  -9.75015504771020613539e-001
  -9.79217123099938580033e-001
  -9.85380165746124303539e-001
  -9.93567895901431130667e-001
  -1.00385982258150630031e+000
  -1.01635306004319225792e+000
  -1.03116398220293836729e+000
  -1.04843021254730173197e+000
  -1.06831299825881864685e+000
  -1.09100002672291518380e+000
  -1.11670875335216468471e+000
  -1.14569032182433905298e+000
  -1.17823417132280705566e+000
  -1.21467343992637877292e+000
  -1.25539128829070989468e+000
  -1.30082828195639788049e+000
  -1.35149098176929105541e+000
  -1.40796189613728328638e+000
  -1.47091093968819519588e+000
  -1.54110850966723966771e+000
  -1.61944021681373273580e+000
  -1.70692316369437691037e+000
  -1.80472340629092919961e+000
  -1.91417379410825816421e+000
  -2.03679065058052000126e+000
  -2.17428655907869661235e+000
  -2.32857460035942365195e+000
  -2.50175635584337197059e+000
  -2.69608128617301368024e+000
  -2.91385795593533192260e+000
  -3.15728710205369589303e+000
  -3.42817200841873415129e+000
  -3.72744348813485615324e+000
  -4.05441912649667468571e+000
  -4.40571280564509848432e+000
  -4.77375423044838775866e+000
  -5.14503512184237088434e+000
  -5.49856176403801910624e+000
  -5.80559348522975859908e+000
  -6.03229058338479440238e+000
  -6.14647246784982037582e+000
  -6.12728193224030981412e+000
  -5.97311394379322813109e+000
  -5.70257868944334411765e+000
  -5.34774382776186030242e+000
  -4.94420926963905582596e+000
  -4.52327859694853628980e+000
  -4.10832856518711153626e+000
  -3.71456516537586622917e+000
  -3.35048019376865546803e+000
  -3.01973269246001052579e+000
  -2.72282264891368352977e+000
  -2.45836118353635013634e+000
  -2.22394959205904196864e+000
  -2.01674907152382321129e+000
  -1.83382917030773717748e+000
  -1.67236736837307731207e+000
  -1.52975289948309689514e+000
  -1.40363138156032518644e+000
  -1.29191440845409966087e+000
  -1.19276956094716091172e+000
  -1.10460045218241509346e+000
  -1.02602260884865459367e+000
  -9.55838556441598874436e-001
  -8.93013957102443245439e-001
  -8.36655720170964456450e-001
  -7.85992453776407251631e-001
  -7.40357309925440576492e-001
  -6.99173105057606103507e-001
  -6.61939515333126449192e-001
  -6.28222114821981092447e-001
  -5.97643022845361415740e-001
  -5.69872940284585238757e-001
  -5.44624375515329717246e-001
</dep>
<dep S[1,1] frequency>
  +4.87830861263623682955e-001
  +4.85766988583570702431e-001-j4.76808659011963981156e-002
  +4.80194148032649537061e-001-j9.49703481869781651614e-002
  +4.71075354999847095705e-001-j1.41507146136715611373e-001
  +4.58519808380446147744e-001-j1.86942105403721553492e-001
  +4.42685099836191198186e-001-j2.30947848508129660594e-001
  +4.23767879067445119023e-001-j2.73225147557588643465e-001
  +4.01996924635381280844e-001-j3.13507813824281833526e-001
  +3.77626334747505565392e-001-j3.51566184034187045881e-001
  +3.50928669858913577784e-001-j3.87209213692074283308e-001
  +3.22188213383523491817e-001-j4.20285232493038618529e-001
  +2.91694570814367171163e-001-j4.50681473819950384474e-001
  +2.59736807743748299160e-001-j4.78322538184093148939e-001
  +2.26598281973569015690e-001-j5.03167982882828934699e-001
  +1.92552271437433336621e-001-j5.25209245849546313423e-001
  +1.57858446698912135986e-001-j5.44466111944251096588e-001
  +1.22760189414334613955e-001-j5.60982917501425371043e-001
  +8.74827192217254023809e-002-j5.74824667218429063986e-001
  +5.22319622849981568535e-002-j5.86073209944025785845e-001
  +1.71940752065698476692e-002-j5.94823589822170428754e-001
  -1.74644726165045782729e-002-j6.01180659215252211069e-001
  -5.15963582457567571105e-002-j6.05256011858453013552e-001
  -8.50725033473980762899e-002-j6.07165270093016795627e-001
  -1.17780901484723865558e-001-j6.07025739497862648619e-001
  -1.49625255025914782880e-001-j6.04954428001692856576e-001
  -1.80523490882688208981e-001-j6.01066414463858555983e-001
  -2.10406212595756592076e-001-j5.95473543373162050862e-001
  -2.39215134898135173280e-001-j5.88283417206215575312e-001
  -2.66901536337653566555e-001-j5.79598655536115892062e-001
  -2.93424756143855658408e-001-j5.69516389622365615253e-001
  -3.18750753440211087586e-001-j5.58127962426716583977e-001
  -3.42850740170549228569e-001-j5.45518806339788664417e-001
  -3.65699893688858079788e-001-j5.31768474002016211521e-001
  -3.87276150765249571606e-001-j5.16950801170396601059e-001
  -4.07559081675826218039e-001-j5.01134184402947990833e-001
  -4.26528840954059629276e-001-j4.84381960251407339690e-001
  -4.44165190180028202072e-001-j4.66752876566677410430e-001
  -4.60446587785629191103e-001-j4.48301650367205206660e-001
  -4.75349341200427932819e-001-j4.29079610461858718118e-001
  -4.88846817728183058449e-001-j4.09135426635758525649e-001
  -5.00908712338322459345e-001-j3.88515930683818455638e-001
  -5.11500373127810936680e-001-j3.67267037887944680641e-001
  -5.20582188644326260274e-001-j3.45434780633236682146e-001
  -5.28109045687872313835e-001-j3.23066468660968719728e-001
  -5.34029871787247811810e-001-j3.00211992818449124876e-001
  -5.38287283471883704067e-001-j2.76925290863032858013e-001
  -5.40817369935322034280e-001-j2.53265994573370845089e-001
  -5.41549651912207830051e-001-j2.29301276633664924409e-001
  -5.40407267714700045858e-001-j2.05107912819664839343e-001
  -5.37307452433019250293e-001-j1.80774569036558307999e-001
  -5.32162392127301542288e-001-j1.56404312586007732122e-001
  -5.24880551909809867084e-001-j1.32117331240258789604e-001
  -5.15368594095059640026e-001-j1.08053820582339060730e-001
  -5.03534018269955474523e-001-j8.43769677651402538743e-002
  -4.89288666341891720357e-001-j6.12759165042952580471e-002
  -4.72553238136657671742e-001-j3.89685422968555836287e-002
  -4.53262951098448385601e-001-j1.77037980899515355604e-002
  -4.31374443537223262179e-001+j2.23668965821721644691e-003
  -4.06873955666626208050e-001+j2.05381818427694540219e-002
  -3.79786716799661139277e-001+j3.68540369549264501536e-002
  -3.50187312192287603096e-001+j5.08091310223490189024e-002
  -3.18210595128089579475e-001+j6.20060759845371539667e-002
  -2.84062453584978280574e-001+j7.00347853036308309882e-002
  -2.48029454874755805882e-001+j7.44857943893006274605e-002
  -2.10486113693967108462e-001+j7.49674702259751496447e-002
  -1.71898318340242162172e-001+j7.11268214654003777531e-002
  -1.32821384124704067187e-001+j6.26730558838518442277e-002
  -9.38913662556784545110e-002+j4.94023761818109530264e-002
  -5.58087243742337868468e-002+j3.12218570703672940181e-002
  -1.93142082541251092209e-002+j8.16975110188083997187e-003
  +1.48421272874221799043e-002-j1.95706068643723384015e-002
  +4.59367193123186301484e-002-j5.16658452784024002646e-002
  +7.33100112849058294096e-002-j8.76382990511663101385e-002
  +9.64019291358133023628e-002-j1.26882941811540750354e-001
  +1.14781485489180878901e-001-j1.68694491568620680289e-001
  +1.28167272363038708960e-001-j2.12302218578565460305e-001
  +1.36436784172732306075e-001-j2.56908900815398077988e-001
  +1.39624041719567326680e-001-j3.01729899766837061925e-001
  +1.37906536052066958087e-001-j3.46028549388007089505e-001
  +1.31583763442447404524e-001-j3.89144869983866881213e-001
  +1.21050366553226540489e-001-j4.30515808211066497435e-001
  +1.06767067828882594727e-001-j4.69686482663068394228e-001
  +8.92322545712412318331e-002-j5.06313031498419219290e-001
  +6.89564167102567626699e-002-j5.40158453308508867963e-001
  +4.64408404461941759500e-002-j5.71083250467964820274e-001
  +2.21611899827722780287e-002-j5.99032760435703970359e-001
  -3.44402380981362332690e-003-j6.24022883410272899418e-001
  -2.99805348062677223808e-002-j6.46125589511392428577e-001
  -5.71016777404420583508e-002-j6.65455209478760023600e-001
  -8.45088132645678835608e-002-j6.82156148754326840944e-001
  -1.11949611183223052269e-001-j6.96392356577668847351e-001
  -1.39214895003129335294e-001-j7.08338646213702460841e-001
  -1.66134630090199214569e-001-j7.18173799631013243250e-001
  -1.92573508450992414431e-001-j7.26075290144408969084e-001
  -2.18426462109135910428e-001-j7.32215405982159284193e-001
  -2.43614333014553846590e-001-j7.36758542414635675399e-001
  -2.68079843581624621685e-001-j7.39859437744113113133e-001
  -2.91783947941423926764e-001-j7.41662149460667219358e-001
  -3.14702597536010375556e-001-j7.42299594219193448197e-001
  -3.36823922712148005054e-001-j7.41893504290832894732e-001
  -3.58145811331484376083e-001-j7.40554680900299522328e-001
  -3.78673853240288404987e-001-j7.38383449806970015850e-001
  -3.98419613329816013625e-001-j7.35470245945650136221e-001
  -4.17399193957494085705e-001-j7.31896271802748854540e-001
  -4.35632048236222924054e-001-j7.27734188683533123054e-001
  -4.53140008069919608680e-001-j7.23048811509871880432e-001
  -4.69946494066131481571e-001-j7.17897786719625674579e-001
  -4.86075878079722911718e-001-j7.12332239660695143435e-001
  -5.01552972802111862727e-001-j7.06397382990543332149e-001
  -5.16402626303681389075e-001-j7.00133081359840536706e-001
  -5.30649402647617174367e-001-j6.93574370375005355704e-001
  -5.44317332566865319521e-001-j6.86751929743495748149e-001
  -5.57429720716818399850e-001-j6.79692511804429910782e-001
  -5.70008998193639371266e-001-j6.72419327490997864594e-001
  -5.82076610864724619532e-001-j6.64952392281421555964e-001
  -5.93652935623455224601e-001-j6.57308834965344979118e-001
