<Qucs Dataset 0.0.19>
<indep frequency 200>
  +1.00000000000000000000e+006
  +1.85829145728643201292e+007
  +3.61658291457286402583e+007
  +5.37487437185929641128e+007
  +7.13316582914572805166e+007
  +8.89145728643216043711e+007
  +1.06497487437185928226e+008
  +1.24080402010050252080e+008
  +1.41663316582914561033e+008
  +1.59246231155778884888e+008
  +1.76829145728643208742e+008
  +1.94412060301507532597e+008
  +2.11994974874371856451e+008
  +2.29577889447236180305e+008
  +2.47160804020100504160e+008
  +2.64743718592964828014e+008
  +2.82326633165829122066e+008
  +2.99909547738693475723e+008
  +3.17492462311557769775e+008
  +3.35075376884422123432e+008
  +3.52658291457286417484e+008
  +3.70241206030150771141e+008
  +3.87824120603015065193e+008
  +4.05407035175879418850e+008
  +4.22989949748743712902e+008
  +4.40572864321608066559e+008
  +4.58155778894472360611e+008
  +4.75738693467336654663e+008
  +4.93321608040201008320e+008
  +5.10904522613065302372e+008
  +5.28487437185929656029e+008
  +5.46070351758793950081e+008
  +5.63653266331658244133e+008
  +5.81236180904522657394e+008
  +5.98819095477386951447e+008
  +6.16402010050251245499e+008
  +6.33984924623115539551e+008
  +6.51567839195979952812e+008
  +6.69150753768844246864e+008
  +6.86733668341708540916e+008
  +7.04316582914572834969e+008
  +7.21899497487437129021e+008
  +7.39482412060301542282e+008
  +7.57065326633165836334e+008
  +7.74648241206030130386e+008
  +7.92231155778894424438e+008
  +8.09814070351758837700e+008
  +8.27396984924623131752e+008
  +8.44979899497487425804e+008
  +8.62562814070351719856e+008
  +8.80145728643216133118e+008
  +8.97728643216080427170e+008
  +9.15311557788944721222e+008
  +9.32894472361809015274e+008
  +9.50477386934673309326e+008
  +9.68060301507537722588e+008
  +9.85643216080402016640e+008
  +1.00322613065326631069e+009
  +1.02080904522613060474e+009
  +1.03839195979899501801e+009
  +1.05597487437185931206e+009
  +1.07355778894472360611e+009
  +1.09114070351758790016e+009
  +1.10872361809045219421e+009
  +1.12630653266331648827e+009
  +1.14388944723618102074e+009
  +1.16147236180904531479e+009
  +1.17905527638190960884e+009
  +1.19663819095477390289e+009
  +1.21422110552763819695e+009
  +1.23180402010050249100e+009
  +1.24938693467336678505e+009
  +1.26696984924623107910e+009
  +1.28455276381909537315e+009
  +1.30213567839195990562e+009
  +1.31971859296482419968e+009
  +1.33730150753768849373e+009
  +1.35488442211055278778e+009
  +1.37246733668341708183e+009
  +1.39005025125628137589e+009
  +1.40763316582914566994e+009
  +1.42521608040200996399e+009
  +1.44279899497487425804e+009
  +1.46038190954773879051e+009
  +1.47796482412060308456e+009
  +1.49554773869346737862e+009
  +1.51313065326633167267e+009
  +1.53071356783919596672e+009
  +1.54829648241206026077e+009
  +1.56587939698492455482e+009
  +1.58346231155778884888e+009
  +1.60104522613065338135e+009
  +1.61862814070351767540e+009
  +1.63621105527638196945e+009
  +1.65379396984924626350e+009
  +1.67137688442211055756e+009
  +1.68895979899497485161e+009
  +1.70654271356783914566e+009
  +1.72412562814070343971e+009
  +1.74170854271356773376e+009
  +1.75929145728643226624e+009
  +1.77687437185929656029e+009
  +1.79445728643216085434e+009
  +1.81204020100502514839e+009
  +1.82962311557788944244e+009
  +1.84720603015075373650e+009
  +1.86478894472361803055e+009
  +1.88237185929648232460e+009
  +1.89995477386934661865e+009
  +1.91753768844221115112e+009
  +1.93512060301507544518e+009
  +1.95270351758793973923e+009
  +1.97028643216080403328e+009
  +1.98786934673366832733e+009
  +2.00545226130653262138e+009
  +2.02303517587939691544e+009
  +2.04061809045226120949e+009
  +2.05820100502512574196e+009
  +2.07578391959799003601e+009
  +2.09336683417085433006e+009
  +2.11094974874371862411e+009
  +2.12853266331658291817e+009
  +2.14611557788944721222e+009
  +2.16369849246231174469e+009
  +2.18128140703517580032e+009
  +2.19886432160804033279e+009
  +2.21644723618090438843e+009
  +2.23403015075376892090e+009
  +2.25161306532663297653e+009
  +2.26919597989949750900e+009
  +2.28677889447236204147e+009
  +2.30436180904522609711e+009
  +2.32194472361809062958e+009
  +2.33952763819095468521e+009
  +2.35711055276381921768e+009
  +2.37469346733668327332e+009
  +2.39227638190954780579e+009
  +2.40985929648241186142e+009
  +2.42744221105527639389e+009
  +2.44502512562814092636e+009
  +2.46260804020100498199e+009
  +2.48019095477386951447e+009
  +2.49777386934673357010e+009
  +2.51535678391959810257e+009
  +2.53293969849246215820e+009
  +2.55052261306532669067e+009
  +2.56810552763819074631e+009
  +2.58568844221105527878e+009
  +2.60327135678391981125e+009
  +2.62085427135678386688e+009
  +2.63843718592964839935e+009
  +2.65602010050251245499e+009
  +2.67360301507537698746e+009
  +2.69118592964824104309e+009
  +2.70876884422110557556e+009
  +2.72635175879396963120e+009
  +2.74393467336683416367e+009
  +2.76151758793969869614e+009
  +2.77910050251256275177e+009
  +2.79668341708542728424e+009
  +2.81426633165829133987e+009
  +2.83184924623115587234e+009
  +2.84943216080401992798e+009
  +2.86701507537688446045e+009
  +2.88459798994974851608e+009
  +2.90218090452261304855e+009
  +2.91976381909547758102e+009
  +2.93734673366834163666e+009
  +2.95492964824120616913e+009
  +2.97251256281407022476e+009
  +2.99009547738693475723e+009
  +3.00767839195979881287e+009
  +3.02526130653266334534e+009
  +3.04284422110552740097e+009
  +3.06042713567839193344e+009
  +3.07801005025125646591e+009
  +3.09559296482412052155e+009
  +3.11317587939698505402e+009
  +3.13075879396984910965e+009
  +3.14834170854271364212e+009
  +3.16592462311557769775e+009
  +3.18350753768844223022e+009
  +3.20109045226130676270e+009
  +3.21867336683417081833e+009
  +3.23625628140703535080e+009
  +3.25383919597989940643e+009
  +3.27142211055276393890e+009
  +3.28900502512562799454e+009
  +3.30658793969849252701e+009
  +3.32417085427135658264e+009
  +3.34175376884422111511e+009
  +3.35933668341708564758e+009
  +3.37691959798994970322e+009
  +3.39450251256281423569e+009
  +3.41208542713567829132e+009
  +3.42966834170854282379e+009
  +3.44725125628140687943e+009
  +3.46483417085427141190e+009
  +3.48241708542713546753e+009
  +3.50000000000000000000e+009
</indep>
<dep dB frequency>
  -6.23667908436936446748e+000
  -6.22086070844325522700e+000
  -6.16160200501072363721e+000
  -6.06492035502542048420e+000
  -5.93633701074141040266e+000
  -5.78219703967318920945e+000
  -5.60915786409464356410e+000
  -5.42365987598616428045e+000
  -5.23153404419896084221e+000
  -5.03777453391264806726e+000
  -4.84645583918665323608e+000
  -4.66075523238636879597e+000
  -4.48304002968179116095e+000
  -4.31498648307241960964e+000
  -4.15770693794073409322e+000
  -4.01187089108824590511e+000
  -3.87781245789290363035e+000
  -3.75562140124810595054e+000
  -3.64521769086691493911e+000
  -3.54641106825464191843e+000
  -3.45894774868507548504e+000
  -3.38254654125562881362e+000
  -3.31692654575254719518e+000
  -3.26182833836131536032e+000
  -3.21703027414940878614e+000
  -3.18236125999172791978e+000
  -3.15771111008987404034e+000
  -3.14303939624401973418e+000
  -3.13838354780628270291e+000
  -3.14386683945008638119e+000
  -3.15970682498743338229e+000
  -3.18622472903659392784e+000
  -3.22385629285375285846e+000
  -3.27316458492619677401e+000
  -3.33485533155517366311e+000
  -3.40979540039483630665e+000
  -3.49903518635643440149e+000
  -3.60383581391492491264e+000
  -3.72570229774759820174e+000
  -3.86642411830351662161e+000
  -4.02812510699902759370e+000
  -4.21332515495012938089e+000
  -4.42501715165409592601e+000
  -4.66676387569349238049e+000
  -4.94282154687898334089e+000
  -5.25829982930468275981e+000
  -5.61937297802677182545e+000
  -6.03356485055727365108e+000
  -6.51014405325789358159e+000
  -7.06068913499583139526e+000
  -7.69992660328712474893e+000
  -8.44702583328149891884e+000
  -9.32769777312914705192e+000
  -1.03777932115500099997e+001
  -1.16499097950623458075e+001
  -1.32266319368974052395e+001
  -1.52503886124091359022e+001
  -1.80034394284578915801e+001
  -2.21923112119680787657e+001
  -3.08179133875570201440e+001
  -3.37214051923733961758e+001
  -2.31412263412084442393e+001
  -1.85547340881636166898e+001
  -1.56254865966979057390e+001
  -1.34997086313365972643e+001
  -1.18550877909998515491e+001
  -1.05338257229319136599e+001
  -9.44617079877148668743e+000
  -8.53571807382217606630e+000
  -7.76438941149017036736e+000
  -7.10506723254137906309e+000
  -6.53763613428902345959e+000
  -6.04669918872057543524e+000
  -5.62018180247956067319e+000
  -5.24843529477647052772e+000
  -4.92363637850578239608e+000
  -4.63936968275263250661e+000
  -4.39032801035158115610e+000
  -4.17209106657176853616e+000
  -3.98095822266372145748e+000
  -3.81381961044464690147e+000
  -3.66805514540764576736e+000
  -3.54145438627966102629e+000
  -3.43215226254280958429e+000
  -3.33857709945774949745e+000
  -3.25940831362239435975e+000
  -3.19354180374863139136e+000
  -3.14006152071139066351e+000
  -3.09821603003978607305e+000
  -3.06739911810399012992e+000
  -3.04713366537362295716e+000
  -3.03705813233224386494e+000
  -3.03691508604204241095e+000
  -3.04654124400489845215e+000
  -3.06585852997605012860e+000
  -3.09486562466310077824e+000
  -3.13362945198756248644e+000
  -3.18227596674123791587e+000
  -3.24097949926906503393e+000
  -3.30994976465218204709e+000
  -3.38941545679023015225e+000
  -3.47960312499328283664e+000
  -3.58070978373545800721e+000
  -3.69286746164598866926e+000
  -3.81609770535421688464e+000
  -3.95025400897571099534e+000
  -4.09495039126947535379e+000
  -4.24947512054446097096e+000
  -4.41269021885793399917e+000
  -4.58292027521187605998e+000
  -4.75783869148048577102e+000
  -4.93436602908400523404e+000
  -5.10860332120489779584e+000
  -5.27583163045426140059e+000
  -5.43061455662874337236e+000
  -5.56703766281817991057e+000
  -5.67910193344710734209e+000
  -5.76125405822642377984e+000
  -5.80898893179328101866e+000
  -5.81941488043891030912e+000
  -5.79165312033141788106e+000
  -5.72696809781120030891e+000
  -5.62859263510515095419e+000
  -5.50129490970841938946e+000
  -5.35079702665741763212e+000
  -5.18317374382606388394e+000
  -5.00433603622404632461e+000
  -4.81965755516308735906e+000
  -4.63375556682937794761e+000
  -4.45040580101113558698e+000
  -4.27255589399728030742e+000
  -4.10240080076744106918e+000
  -3.94148967005743378067e+000
  -3.79084226420392322865e+000
  -3.65106110134220740449e+000
  -3.52243184394966979411e+000
  -3.40500885373671646761e+000
  -3.29868557138813045526e+000
  -3.20325089644865235172e+000
  -3.11843344422067625388e+000
  -3.04393575934504889702e+000
  -2.97946049132270740500e+000
  -2.92473032912120700644e+000
  -2.87950323697101318032e+000
  -2.84358428016826314533e+000
  -2.81683510281581916956e+000
  -2.79918192932934317696e+000
  -2.79062281068345585666e+000
  -2.79123472332501165738e+000
  -2.80118105044675536064e+000
  -2.82071992875417709712e+000
  -2.85021392645872184701e+000
  -2.89014152856964390281e+000
  -2.94111094361630431848e+000
  -3.00387681339692136362e+000
  -3.07936050800973415420e+000
  -3.16867482879277639896e+000
  -3.27315413211916084180e+000
  -3.39439114286976550972e+000
  -3.53428207149253825747e+000
  -3.69508211901995498039e+000
  -3.87947410637268008671e+000
  -4.09065388637504767644e+000
  -4.33243753183708424359e+000
  -4.60939727476246119409e+000
  -4.92703619068194242914e+000
  -5.29201634124346487198e+000
  -5.71246265214269222099e+000
  -6.19837722094422893804e+000
  -6.76221959875792943961e+000
  -7.41974431560638247873e+000
  -8.19124910752631407718e+000
  -9.10349596701452590253e+000
  -1.01927510689059435123e+001
  -1.15096530156786709398e+001
  -1.31266700778781082448e+001
  -1.51462513941818581742e+001
  -1.76837743106169824614e+001
  -2.06225867963064182220e+001
  -2.23578840830831602204e+001
  -2.06403761253329847136e+001
  -1.76917005295174192270e+001
  -1.51394823925263928288e+001
  -1.31065089387510624874e+001
  -1.14778227892537501020e+001
  -1.01507445334991004415e+001
  -9.05258738860517730984e+000
  -8.13254805762752752685e+000
  -7.35422869858662586751e+000
  -6.69075255388596801254e+000
  -6.12171612097942041686e+000
  -5.63126519839373340659e+000
  -5.20684615526641358940e+000
  -4.83836879682830733884e+000
  -4.51762660692289408360e+000
  -4.23788276955812115432e+000
  -3.99356632819081136532e+000
  -3.78004380209731571938e+000
  -3.59344404081327395417e+000
  -3.43052167054972123594e+000
</dep>
<dep S[1,1] frequency>
  +4.87696909308768078439e-001-j4.19195040400598042257e-003
  +4.82403925332660410419e-001-j7.75903528816404147728e-002
  +4.68661450497189713271e-001-j1.49566240116844828556e-001
  +4.46705186305169976713e-001-j2.18897603465888324070e-001
  +4.17105844085040922131e-001-j2.84465532426833922486e-001
  +3.80622438151821007590e-001-j3.45302466063164226195e-001
  +3.38148946179861464856e-001-j4.00622009883884799830e-001
  +2.90664000046227721796e-001-j4.49834051022703407252e-001
  +2.39182955826853699266e-001-j4.92546287988822273363e-001
  +1.84714996623217164728e-001-j5.28554200951956376642e-001
  +1.28227502865088688333e-001-j5.57822234570796715580e-001
  +7.06189015209436887766e-002-j5.80459256673040435714e-001
  +1.27001799118576230718e-002-j5.96691220793885479523e-001
  -4.48155661103523672573e-002-j6.06833521495585115346e-001
  -1.01316714741752467166e-001-j6.11264933228639395502e-001
  -1.56291258119802434212e-001-j6.10404393304866510483e-001
  -2.09320965046704970947e-001-j6.04691317878848666467e-001
  -2.60072916148517407908e-001-j5.94569677336945101587e-001
  -3.08289556133090836276e-001-j5.80475721158372204300e-001
  -3.53778167615455108042e-001-j5.62829025718561526404e-001
  -3.96400433616561187478e-001-j5.42026422143248920449e-001
  -4.36062544405825813776e-001-j5.18438320824441967183e-001
  -4.72706129888436465958e-001-j4.92406960814442296037e-001
  -5.06300163790893043014e-001-j4.64246155822622685871e-001
  -5.36833887823411015638e-001-j4.34242168409565976184e-001
  -5.64310737505325565877e-001-j4.02655409240697315099e-001
  -5.88743210273257489007e-001-j3.69722721859753522544e-001
  -6.10148594918221931493e-001-j3.35660071307297747101e-001
  -6.28545474177521934500e-001-j3.00665505105315089551e-001
  -6.43950915315925742632e-001-j2.64922297102837434046e-001
  -6.56378273668188683132e-001-j2.28602218677553092885e-001
  -6.65835549201370113792e-001-j1.91868908434854407163e-001
  -6.72324254776901830688e-001-j1.54881331528263999076e-001
  -6.75838776132999696777e-001-j1.17797333590418884519e-001
  -6.76366227282046650338e-001-j8.07773022640863036514e-002
  -6.73886830901013200723e-001-j4.39879512996918797807e-002
  -6.68374881344553584128e-001-j7.60623747349336958024e-003
  -6.59800377961569983754e-001+j2.81765920800064149920e-002
  -6.48131447884522593483e-001+j6.31508470542800487424e-002
  -6.33337709077200772256e-001+j9.70841956022353153033e-002
  -6.15394753644083802868e-001+j1.29717531020102389006e-001
  -5.94289953869996390168e-001+j1.60761084060299180853e-001
  -5.70029802256384665604e-001+j1.89891054159897931797e-001
  -5.42648981673160668571e-001+j2.16747150622625478489e-001
  -5.12221308339796843612e-001+j2.40931577049662615231e-001
  -4.78872580151202931198e-001+j2.62010153130994238868e-001
  -4.42795174044498252020e-001+j2.79516432358342281628e-001
  -4.04263946518595373991e-001+j2.92959814048337707781e-001
  -3.63652584808685452877e-001+j3.01838717402333311934e-001
  -3.21449032706993043096e-001+j3.05659818357234325248e-001
  -2.78268006170399873067e-001+j3.03964063798863703969e-001
  -2.34858000360044727461e-001+j2.96359584924337227108e-001
  -1.92099716101121753553e-001+j2.82560667132040532756e-001
  -1.50992709168023986344e-001+j2.62430597871182724745e-001
  -1.12627537072575223398e-001+j2.36024624036210772804e-001
  -7.81419614830534681182e-002+j2.03627685229506194542e-001
  -4.86619376132077507968e-002+j1.65780489735151526087e-001
  -2.52310024305896218877e-002+j1.23287394840899414139e-001
  -8.73474389691730745966e-003+j7.72008894177530491376e-002
  +1.70512589814819648382e-004+j2.87803922499732592333e-002
  +1.11470946955238847664e-003-j2.05727883410086222205e-002
  -5.95217412598308959204e-003-j6.93980293843411144561e-002
  -2.07552094941015896623e-002-j1.16265609156477989217e-001
  -4.27193177668129808744e-002-j1.59863029483744756298e-001
  -7.10196435869870912327e-002-j1.99066738421364408662e-001
  -1.04649451362203604887e-001-j2.32991582858669998846e-001
  -1.42495570195962983906e-001-j2.61014630797153091013e-001
  -1.83411701391848758202e-001-j2.82774376658297799114e-001
  -2.26281951619456023206e-001-j2.98149745901529539260e-001
  -2.70069928920178170539e-001-j3.07225194684093816377e-001
  -3.13851770264099161345e-001-j3.10248539504742792960e-001
  -3.56833926967199788205e-001-j3.07587320746375125768e-001
  -3.98358124387263035082e-001-j2.99688029495178198669e-001
  -4.37896637441731240159e-001-j2.87040895502508330850e-001
  -4.75041068010863321014e-001-j2.70151484053328894142e-001
  -5.09487422292274394486e-001-j2.49519250078523324721e-001
  -5.41019694054777122716e-001-j2.25622482830672266285e-001
  -5.69493531916676398730e-001-j1.98908694620750975401e-001
  -5.94821006781179106859e-001-j1.69789377969198490570e-001
  -6.16957045642462897916e-001-j1.38638089820115717465e-001
  -6.35887768798687802452e-001-j1.05790946333154584069e-001
  -6.51620746633606140463e-001-j7.15487743310742746461e-002
  -6.64177058201860126552e-001-j3.61803318101447390909e-002
  -6.73584964213312931136e-001+j7.38389361670532682258e-005
  -6.79874981639933873012e-001+j3.69972345634672489245e-002
  -6.83076150188182018574e-001+j7.43930974377151887911e-002
  -6.83213300649913257701e-001+j1.12080135195346652921e-001
  -6.80305163684139291291e-001+j1.49888325229391938809e-001
  -6.74363189771307158793e-001+j1.87654836098081367890e-001
  -6.65390983883269337973e-001+j2.25220071336650867755e-001
  -6.53384290206106443932e-001+j2.62423825429774937312e-001
  -6.38331492315447390773e-001+j2.99101534652001344039e-001
  -6.20214622309999241700e-001+j3.35080605691729593865e-001
  -5.99010898532832070096e-001+j3.70176811678179840115e-001
  -5.74694835588043240193e-001+j4.04190758244507564179e-001
  -5.47240992088866118337e-001+j4.36904441885671013246e-001
  -5.16627440215929212286e-001+j4.68077949789440728168e-001
  -4.82840055354791353182e-001+j4.97446385454812955995e-001
  -4.45877731615854089320e-001+j5.24717148720708292942e-001
  -4.05758626666536226235e-001+j5.49567752997317082730e-001
  -3.62527522551355008140e-001+j5.71644426496742519284e-001
  -3.16264352263181947045e-001+j5.90561816726008381728e-001
  -2.67093877799804813034e-001+j6.05904194868352563574e-001
  -2.15196406638396148248e-001+j6.17228632127890364245e-001
  -1.60819292685841885859e-001+j6.24070682429406442537e-001
  -1.04288779726413427529e-001+j6.25953138368223416244e-001
  -4.60215101657798220103e-002+j6.22398407330768677070e-001
  +1.34652516178743741904e-002+j6.12944954277814257892e-001
  +7.35459213229638086862e-002+j5.97168046248015893518e-001
  +1.33482927056957384471e-001+j5.74704683812543803967e-001
  +1.92428756854126969955e-001+j5.45282101621485049137e-001
  +2.49435423179954818274e-001+j5.08748574093318195466e-001
  +3.03472813730562229750e-001+j4.65104522393831931737e-001
  +3.53456841174326463761e-001+j4.14531183702211591946e-001
  +3.98287388972241362950e-001+j3.57413521780062970468e-001
  +4.36894813817040428283e-001+j2.94353810486071121311e-001
