<Qucs Dataset 0.0.19>
<indep frequency 200>
  +0.00000000000000000000e+000
  +2.01005025125628151000e+007
  +4.02010050251256301999e+007
  +6.03015075376884415746e+007
  +8.04020100502512603998e+007
  +1.00502512562814071774e+008
  +1.20603015075376883149e+008
  +1.40703517587939709425e+008
  +1.60804020100502520800e+008
  +1.80904522613065332174e+008
  +2.01005025125628143549e+008
  +2.21105527638190954924e+008
  +2.41206030150753766298e+008
  +2.61306532663316577673e+008
  +2.81407035175879418850e+008
  +3.01507537688442230225e+008
  +3.21608040201005041599e+008
  +3.41708542713567852974e+008
  +3.61809045226130664349e+008
  +3.81909547738693475723e+008
  +4.02010050251256287098e+008
  +4.22110552763819098473e+008
  +4.42211055276381909847e+008
  +4.62311557788944721222e+008
  +4.82412060301507532597e+008
  +5.02512562814070343971e+008
  +5.22613065326633155346e+008
  +5.42713567839195966721e+008
  +5.62814070351758837700e+008
  +5.82914572864321589470e+008
  +6.03015075376884460449e+008
  +6.23115577889447212219e+008
  +6.43216080402010083199e+008
  +6.63316582914572834969e+008
  +6.83417085427135705948e+008
  +7.03517587939698457718e+008
  +7.23618090452261328697e+008
  +7.43718592964824080467e+008
  +7.63819095477386951447e+008
  +7.83919597989949703217e+008
  +8.04020100502512574196e+008
  +8.24120603015075325966e+008
  +8.44221105527638196945e+008
  +8.64321608040200948715e+008
  +8.84422110552763819695e+008
  +9.04522613065326690674e+008
  +9.24623115577889442444e+008
  +9.44723618090452313423e+008
  +9.64824120603015065193e+008
  +9.84924623115577936172e+008
  +1.00502512562814068794e+009
  +1.02512562814070355892e+009
  +1.04522613065326631069e+009
  +1.06532663316582918167e+009
  +1.08542713567839193344e+009
  +1.10552763819095468521e+009
  +1.12562814070351767540e+009
  +1.14572864321608042717e+009
  +1.16582914572864317894e+009
  +1.18592964824120593071e+009
  +1.20603015075376892090e+009
  +1.22613065326633167267e+009
  +1.24623115577889442444e+009
  +1.26633165829145717621e+009
  +1.28643216080402016640e+009
  +1.30653266331658291817e+009
  +1.32663316582914566994e+009
  +1.34673366834170866013e+009
  +1.36683417085427141190e+009
  +1.38693467336683416367e+009
  +1.40703517587939691544e+009
  +1.42713567839195990562e+009
  +1.44723618090452265739e+009
  +1.46733668341708540916e+009
  +1.48743718592964816093e+009
  +1.50753768844221115112e+009
  +1.52763819095477390289e+009
  +1.54773869346733665466e+009
  +1.56783919597989940643e+009
  +1.58793969849246239662e+009
  +1.60804020100502514839e+009
  +1.62814070351758790016e+009
  +1.64824120603015065193e+009
  +1.66834170854271364212e+009
  +1.68844221105527639389e+009
  +1.70854271356783914566e+009
  +1.72864321608040189743e+009
  +1.74874371859296488762e+009
  +1.76884422110552763939e+009
  +1.78894472361809039116e+009
  +1.80904522613065338135e+009
  +1.82914572864321613312e+009
  +1.84924623115577888489e+009
  +1.86934673366834163666e+009
  +1.88944723618090462685e+009
  +1.90954773869346737862e+009
  +1.92964824120603013039e+009
  +1.94974874371859288216e+009
  +1.96984924623115587234e+009
  +1.98994974874371862411e+009
  +2.01005025125628137589e+009
  +2.03015075376884412766e+009
  +2.05025125628140711784e+009
  +2.07035175879396986961e+009
  +2.09045226130653262138e+009
  +2.11055276381909537315e+009
  +2.13065326633165836334e+009
  +2.15075376884422111511e+009
  +2.17085427135678386688e+009
  +2.19095477386934661865e+009
  +2.21105527638190937042e+009
  +2.23115577889447259903e+009
  +2.25125628140703535080e+009
  +2.27135678391959810257e+009
  +2.29145728643216085434e+009
  +2.31155778894472360611e+009
  +2.33165829145728635788e+009
  +2.35175879396984910965e+009
  +2.37185929648241186142e+009
  +2.39195979899497509003e+009
  +2.41206030150753784180e+009
  +2.43216080402010059357e+009
  +2.45226130653266334534e+009
  +2.47236180904522609711e+009
  +2.49246231155778884888e+009
  +2.51256281407035160065e+009
  +2.53266331658291435242e+009
  +2.55276381909547758102e+009
  +2.57286432160804033279e+009
  +2.59296482412060308456e+009
  +2.61306532663316583633e+009
  +2.63316582914572858810e+009
  +2.65326633165829133987e+009
  +2.67336683417085409164e+009
  +2.69346733668341732025e+009
  +2.71356783919598007202e+009
  +2.73366834170854282379e+009
  +2.75376884422110557556e+009
  +2.77386934673366832733e+009
  +2.79396984924623107910e+009
  +2.81407035175879383087e+009
  +2.83417085427135658264e+009
  +2.85427135678391981125e+009
  +2.87437185929648256302e+009
  +2.89447236180904531479e+009
  +2.91457286432160806656e+009
  +2.93467336683417081833e+009
  +2.95477386934673357010e+009
  +2.97487437185929632187e+009
  +2.99497487437185907364e+009
  +3.01507537688442230225e+009
  +3.03517587939698505402e+009
  +3.05527638190954780579e+009
  +3.07537688442211055756e+009
  +3.09547738693467330933e+009
  +3.11557788944723606110e+009
  +3.13567839195979881287e+009
  +3.15577889447236204147e+009
  +3.17587939698492479324e+009
  +3.19597989949748754501e+009
  +3.21608040201005029678e+009
  +3.23618090452261304855e+009
  +3.25628140703517580032e+009
  +3.27638190954773855209e+009
  +3.29648241206030130386e+009
  +3.31658291457286453247e+009
  +3.33668341708542728424e+009
  +3.35678391959799003601e+009
  +3.37688442211055278778e+009
  +3.39698492462311553955e+009
  +3.41708542713567829132e+009
  +3.43718592964824104309e+009
  +3.45728643216080379486e+009
  +3.47738693467336702347e+009
  +3.49748743718592977524e+009
  +3.51758793969849252701e+009
  +3.53768844221105527878e+009
  +3.55778894472361803055e+009
  +3.57788944723618078232e+009
  +3.59798994974874353409e+009
  +3.61809045226130676270e+009
  +3.63819095477386951447e+009
  +3.65829145728643226624e+009
  +3.67839195979899501801e+009
  +3.69849246231155776978e+009
  +3.71859296482412052155e+009
  +3.73869346733668327332e+009
  +3.75879396984924602509e+009
  +3.77889447236180925369e+009
  +3.79899497487437200546e+009
  +3.81909547738693475723e+009
  +3.83919597989949750900e+009
  +3.85929648241206026077e+009
  +3.87939698492462301254e+009
  +3.89949748743718576431e+009
  +3.91959798994974851608e+009
  +3.93969849246231174469e+009
  +3.95979899497487449646e+009
  +3.97989949748743724823e+009
  +4.00000000000000000000e+009
</indep>
<dep dB frequency>
  -1.92865493310657466570e-015
  -2.86690867976372928960e-003
  -7.01781300112541521485e-003
  -1.33933036479670971447e-002
  -2.22400348636299927119e-002
  -3.38307791544772071268e-002
  -4.85091749416808465378e-002
  -6.67132930343080632341e-002
  -8.89987812450400983533e-002
  -1.16066609973404205602e-001
  -1.48798187042129936852e-001
  -1.88300461271891511617e-001
  -2.35964070187203889262e-001
  -2.93538282109495174410e-001
  -3.63227304781472359885e-001
  -4.47813318070015231598e-001
  -5.50812005584429664751e-001
  -6.76665722109235479031e-001
  -8.30976381676363673456e-001
  -1.02077212087667446028e+000
  -1.25478415780951890746e+000
  -1.54367505875460730991e+000
  -1.90009377400322110319e+000
  -2.33831601091297036632e+000
  -2.87303125603674613942e+000
  -3.51652295474337162062e+000
  -4.27303908609844995681e+000
  -5.12873440465269947452e+000
  -6.03621069808040111582e+000
  -6.89790990487266597597e+000
  -7.56767850666364694234e+000
  -7.90249621381034383916e+000
  -7.85277723075406797193e+000
  -7.49574148885626367900e+000
  -6.96827781191343387235e+000
  -6.38753517875760756795e+000
  -5.82409575059398854080e+000
  -5.31079415088856876537e+000
  -4.85821018481577393544e+000
  -4.46589725249788038752e+000
  -4.12874104632112004509e+000
  -3.84015668385608588409e+000
  -3.59356096895170473715e+000
  -3.38297602423878140954e+000
  -3.20321809703216331400e+000
  -3.04989969511345870856e+000
  -2.91935612775856778711e+000
  -2.80854879443714944287e+000
  -2.71496865079869742488e+000
  -2.63654929833658391303e+000
  -2.57159256169892946886e+000
  -2.51870647243417966621e+000
  -2.47675439569865218914e+000
  -2.44481368610422356014e+000
  -2.42214228068930959026e+000
  -2.40815180692829367004e+000
  -2.40238599552065679177e+000
  -2.40450339368096877024e+000
  -2.41426355563735350884e+000
  -2.43151603742030975042e+000
  -2.45619164315415305921e+000
  -2.48829546257844436141e+000
  -2.52790130752761843524e+000
  -2.57514720133712859962e+000
  -2.63023160169024761146e+000
  -2.69341004554569485308e+000
  -2.76499189497139141736e+000
  -2.84533683469983378345e+000
  -2.93485072512315303683e+000
  -3.03398034688951101501e+000
  -3.14320648363990962082e+000
  -3.26303467630835353219e+000
  -3.39398284522466786584e+000
  -3.53656481641075348676e+000
  -3.69126861113892923427e+000
  -3.85852817488921262523e+000
  -4.03868705631562718850e+000
  -4.23195243959319977733e+000
  -4.43833795295572386408e+000
  -4.65759393108321795296e+000
  -4.88912446336547734660e+000
  -5.13189184642170026507e+000
  -5.38431127849999313639e+000
  -5.64414211975101576257e+000
  -5.90838705506778172349e+000
  -6.17321698693249931722e+000
  -6.43394670417319236577e+000
  -6.68509235474411767086e+000
  -6.92054294213071763409e+000
  -7.13386964774907461617e+000
  -7.31877447276126691378e+000
  -7.46964331234845513308e+000
  -7.58212602254097500776e+000
  -7.65363406311743155186e+000
  -7.68364427166011854098e+000
  -7.67373492673037738143e+000
  -7.62734750378999759590e+000
  -7.54933727495095485693e+000
  -7.44541953466281469787e+000
  -7.32162251262893803982e+000
  -7.18382998414001239240e+000
  -7.03745489126141521297e+000
  -6.88724764389090271521e+000
  -6.73721848644685827878e+000
  -6.59064320415774584916e+000
  -6.45012157808909325496e+000
  -6.31766349495141810166e+000
  -6.19478470301366357376e+000
  -6.08260071527697121496e+000
  -5.98191242150323709836e+000
  -5.89328047925973041998e+000
  -5.81708775862380278454e+000
  -5.75359035730948420451e+000
  -5.70295829515177121749e+000
  -5.66530718013720502313e+000
  -5.64072208013262965665e+000
  -5.62927464265086907602e+000
  -5.63103424293975152182e+000
  -5.64607364196472261142e+000
  -5.67446931474492721748e+000
  -5.71629626866584317213e+000
  -5.77161680764705664615e+000
  -5.84046230738172233998e+000
  -5.92280665010564177919e+000
  -6.01852953811968571785e+000
  -6.12736750237084759618e+000
  -6.24885012913098858434e+000
  -6.38221900110858619826e+000
  -6.52632735953600917611e+000
  -6.67951997093313210030e+000
  -6.83949575001338772040e+000
  -7.00316113912992399548e+000
  -7.16649084722178475459e+000
  -7.32442456366847949312e+000
  -7.47084245448121642141e+000
  -7.59867450143028655418e+000
  -7.70020088807617764104e+000
  -7.76758127021346922447e+000
  -7.79360053661233820321e+000
  -7.77254061095345072374e+000
  -7.70100723595222103057e+000
  -7.57850172752540807153e+000
  -7.40756846511552780044e+000
  -7.19346735674763415602e+000
  -6.94346453917887274088e+000
  -6.66593400036012173615e+000
  -6.36947822395008955709e+000
  -6.06221947370846692138e+000
  -5.75132849863726036688e+000
  -5.44278484086598179914e+000
  -5.14132115862794236705e+000
  -4.85049142487628337506e+000
  -4.57280874346236121397e+000
  -4.30991202372529347286e+000
  -4.06273483517359146333e+000
  -3.83166120586805725168e+000
  -3.61666118266748215504e+000
  -3.41740406229216731049e+000
  -3.23335010330341887652e+000
  -3.06382297391581204238e+000
  -2.90806574202530354611e+000
  -2.76528325830604337909e+000
  -2.63467356689457199437e+000
  -2.51545064901875825569e+000
  -2.40686044700082879544e+000
  -2.30819177389224172714e+000
  -2.21878340863278777917e+000
  -2.13802841573441382295e+000
  -2.06537651250051634833e+000
  -2.00033513254100192569e+000
  -1.94246969719684736688e+000
  -1.89140350153501168862e+000
  -1.84681754428786848443e+000
  -1.80845057769719397278e+000
  -1.77609962079920169487e+000
  -1.74962116639943721097e+000
  -1.72893331709225184234e+000
  -1.71401910967998616364e+000
  -1.70493133217038050908e+000
  -1.70179920682961682843e+000
  -1.70483741235492147759e+000
  -1.71435805669877816548e+000
  -1.73078640165253938576e+000
  -1.75468139793105071256e+000
  -1.78676243813464674659e+000
  -1.82794420468483576059e+000
  -1.87938211802171872833e+000
  -1.94253171864206963804e+000
  -2.01922637904904789252e+000
  -2.11177903142250800173e+000
  -2.22311497957175285833e+000
  -2.35694386596896032771e+000
  -2.51797816194873735895e+000
  -2.71219973951510517907e+000
  -2.94715674938971039509e+000
  -3.23221972397621915007e+000
  -3.57858957047481895941e+000
  -3.99851663649191069183e+000
  -4.50241090931088372429e+000
  -5.09086934268955637606e+000
</dep>
<dep S[1,1] frequency>
  -9.99999999999999777955e-001
  -9.99294327518518432640e-001+j2.74031879233550129671e-002
  -9.97686609612973174244e-001+j5.48345030092937044119e-002
  -9.95059138559135747393e-001+j8.23294542717819544109e-002
  -9.91367547810760196825e-001+j1.09920505918466721029e-001
  -9.86557886495863956000e-001+j1.37637109355019410240e-001
  -9.80561441906086184161e-001+j1.65504553630649836604e-001
  -9.73292082467319130679e-001+j1.93542248107365755239e-001
  -9.64643837951769889116e-001+j2.21761331431800740033e-001
  -9.54488302354217776902e-001+j2.50161382533922727056e-001
  -9.42671794389369988032e-001+j2.78725917425135583105e-001
  -9.29012365702210463070e-001+j3.07416250124515011422e-001
  -9.13296905902470701477e-001+j3.36163169818495144447e-001
  -8.95278826745603217852e-001+j3.64855743530811627018e-001
  -8.74677173825298637233e-001+j3.93326414195454887590e-001
  -8.51178583013284972836e-001+j4.21331478417812654857e-001
  -8.24444353641266447497e-001+j4.48526103359702110751e-001
  -7.94126128504207717818e-001+j4.74433484173185482380e-001
  -7.59895264441441731229e-001+j4.98408915974189459241e-001
  -7.21492752943027948476e-001+j5.19602035452773058921e-001
  -6.78807830467695993981e-001+j5.36925055493176373034e-001
  -6.31992594126178031111e-001+j5.49042192812540408298e-001
  -5.81613986068428179266e-001+j5.54405500747746748935e-001
  -5.28829086093298483817e-001+j5.51372087002003796741e-001
  -4.75541259543077687866e-001+j5.38439004050352387765e-001
  -4.24456923465201807488e-001+j5.14610251051428435609e-001
  -3.78935819468128820553e-001+j4.79850530033555489062e-001
  -3.42551822438153630301e-001+j4.35488112861356579941e-001
  -3.18392290781545628242e-001+j3.84355737951673437358e-001
  -3.08296815774145471778e-001+j3.30492288300458181283e-001
  -3.12352478861078752814e-001+j2.78413648641736399814e-001
  -3.28890386130360257155e-001+j2.32204506690222467480e-001
  -3.54978673630265584293e-001+j1.94792811787895259190e-001
  -3.87164297160349835103e-001+j1.67649050736189297872e-001
  -4.22154717036833937449e-001+j1.50911769618763735856e-001
  -4.57249005874376224234e-001+j1.43765661541838146720e-001
  -4.90493530762055485184e-001+j1.44870968521166432197e-001
  -5.20640636884255103567e-001+j1.52714288241651702238e-001
  -5.47010428000144655059e-001+j1.65837405323808084745e-001
  -5.69330750894556869568e-001+j1.82956297213735213925e-001
  -5.87595760749995754679e-001+j2.03002997886616659562e-001
  -6.01957263265407438446e-001+j2.25122308133793719298e-001
  -6.12648588498635016109e-001+j2.48646769212382739989e-001
  -6.19934938465026341703e-001+j2.73064323934491037793e-001
  -6.24083086162377620454e-001+j2.97986347209080348897e-001
  -6.25344260281874397833e-001+j3.23119467091721013219e-001
  -6.23945549809545974007e-001+j3.48242218047611629128e-001
  -6.20086562040625732806e-001+j3.73186392779414122245e-001
  -6.13939163990103842217e-001+j3.97822472793682324621e-001
  -6.05648922811135803634e-001+j4.22048390007160600934e-001
  -5.95337393849248663891e-001+j4.45780910231488358697e-001
  -5.83104753380592311096e-001+j4.68949031689019690816e-001
  -5.69032494538845856624e-001+j4.91488907294015398008e-001
  -5.53186042415154455298e-001+j5.13339906141002333406e-001
  -5.35617227778352078538e-001+j5.34441519797197117647e-001
  -5.16366608337984311916e-001+j5.54730891738983822314e-001
  -4.95465654976366187690e-001+j5.74140805583238988952e-001
  -4.72938836182838884259e-001+j5.92598012509453875296e-001
  -4.48805642185378439457e-001+j6.10021813319223449312e-001
  -4.23082594116370169779e-001+j6.26322838466990994277e-001
  -3.95785284784169688610e-001+j6.41401992220972161363e-001
  -3.66930497208438177736e-001+j6.55149546563746576489e-001
  -3.36538445400852759271e-001+j6.67444387844016828737e-001
  -3.04635178916590310116e-001+j6.78153435559311956737e-001
  -2.71255188144995773580e-001+j6.87131268721367760577e-001
  -2.36444240581654946398e-001+j6.94220011500818801053e-001
  -2.00262468648848362962e-001+j6.99249546449012382432e-001
  -1.62787716048750502607e-001+j7.02038140402369892357e-001
  -1.24119131053869485859e-001+j7.02393584632036382942e-001
  -8.43809704200883248237e-002+j7.00114965847373094121e-001
  -4.37265456854807332832e-002+j6.94995196621215560739e-001
  -2.34220370956844670118e-003+j6.86824440285586867994e-001
  +3.95488147984338622720e-002+j6.75394563174934181582e-001
  +8.16828505673519722485e-002+j6.60504732335414956879e-001
  +1.23752907483376528575e-001+j6.41968244949189026372e-001
  +1.65406675267425168352e-001+j6.19620622026780698555e-001
  +2.06245884038712440356e-001+j5.93328919195227788563e-001
  +2.45827423226374741638e-001+j5.63002099027656299768e-001
  +2.83666671953367088843e-001+j5.28602172685431526133e-001
  +3.19243461923515270406e-001+j4.90155658682137285176e-001
  +3.52011012898397201987e-001+j4.47764734574007339241e-001
  +3.81408033467068308120e-001+j4.01617291892113370544e-001
  +4.06873960568637227375e-001+j3.51994971438725490209e-001
  +4.27867024992753919310e-001+j2.99278186241962895764e-001
  +4.43884495630312514436e-001+j2.43947165086371098308e-001
  +4.54484107019288929852e-001+j1.86578197147972579817e-001
  +4.59305361284912283537e-001+j1.27834540828844045457e-001
  +4.58089173668986604504e-001+j6.84518691583623772878e-002
  +4.50694255223817674683e-001+j9.21862587883373260644e-003
  +4.37108736720047852398e-001-j4.90477989722235552250e-002
  +4.17455846807869623838e-001-j1.05527674758995604343e-001
  +3.91992942032291347143e-001-j1.59426552731701254295e-001
  +3.61103788048518947740e-001-j2.10001967604903305720e-001
  +3.25284625691745765685e-001-j2.56587336069027893704e-001
  +2.85125128406932215608e-001-j2.98611450778847375975e-001
  +2.41285785548023767877e-001-j3.35612430239663583897e-001
  +1.94473473922630202271e-001-j3.67245553519547240917e-001
  +1.45416990472397616996e-001-j3.93284995775132428797e-001
  +9.48441331461125081148e-002-j4.13620003535526525873e-001
  +4.34615853192967249718e-002-j4.28246445902894956603e-001
  -8.06155263061908433642e-003-j4.37254917243331653331e-001
  -5.91061665568511918067e-002-j4.40816646662341493634e-001
  -1.09111433292233217518e-001-j4.39168411922776724676e-001
  -1.57579301224840873097e-001-j4.32597497544712661366e-001
  -2.04075634894493929128e-001-j4.21427520497606067362e-001
  -2.48228632395310344627e-001-j4.06005710764887894904e-001
  -2.89725164063926288183e-001-j3.86692008445835400110e-001
  -3.28305658570004543773e-001-j3.63850144014097487410e-001
  -3.63758098623423786755e-001-j3.37840714096289906898e-001
  -3.95911601894712195104e-001-j3.09016153923867942233e-001
  -4.24629968652273981355e-001-j2.77717436172992826471e-001
  -4.49805487058108244280e-001-j2.44272287786425096323e-001
  -4.71353207010273056454e-001-j2.08994703838412926311e-001
  -4.89205827499666456859e-001-j1.72185542881503533819e-001
  -5.03309291778565537356e-001-j1.34134004665550310431e-001
  -5.13619148643487344330e-001-j9.51198129956393051421e-002
